(1734906763.236327) vcan0 744#CD
(1734906763.580210) vcan0 4DC#8DF0CB255340D2
(1734906763.786389) vcan0 6C3#A106
(1734906763.994588) vcan0 0E5#D456
(1734906764.203058) vcan0 127#42D4EA3B
(1734906764.609393) vcan0 1E6#2694625699303C55
(1734906764.952023) vcan0 4BC#21FED37245721B75
(1734906765.160167) vcan0 0D8#8A
(1734906765.377357) vcan0 572#20C7961C4ED201
(1734906765.588749) vcan0 00E#A212D427D2FE8366
(1734906765.789751) vcan0 1DF#149DDC
(1734906765.992932) vcan0 1E6#98CBB63C0D0B4C38
(1734906766.200656) vcan0 55C#C313EA26439FA339
(1734906766.401596) vcan0 3D5#DCCFDF0E9290E544
(1734906766.610204) vcan0 675#D702013A4DEF9E76
(1734906766.818072) vcan0 6CE#69
(1734906767.027062) vcan0 6B9#8F66907EC7367245
(1734906767.236524) vcan0 637#99
(1734906767.439039) vcan0 275#DB42792D5B24DD1E
(1734906767.644247) vcan0 696#682F2957
(1734906767.853102) vcan0 64F#35D3F66324FA4E3C
(1734906768.061304) vcan0 315#B68A
(1734906768.262254) vcan0 10F#D828102BDE1FCC37
(1734906768.472641) vcan0 3EF#1FB4
(1734906768.672999) vcan0 6CB#70D17160027DC42D
(1734906768.876679) vcan0 3E0#19FD5C045526B468
(1734906769.078902) vcan0 1B7#B04A9107
(1734906769.279461) vcan0 668#3FD4B446B7FCD77E
(1734906769.485287) vcan0 543#DCF6263B59
(1734906769.693766) vcan0 287#E4E1
(1734906769.901312) vcan0 720#74DBD8491053BA1D
(1734906770.102615) vcan0 2FE#B8EDB9
(1734906770.305139) vcan0 242#CCAE4E5F223E6E58
(1734906770.512898) vcan0 632#77642241E9
(1734906770.730068) vcan0 3DA#3640306B423A88
(1734906770.936580) vcan0 13F#FA36603082
(1734906771.139162) vcan0 3EA#DB8E695C7106
(1734906771.340462) vcan0 768#08C21F0C89BE731F
(1734906771.547706) vcan0 37C#99112E3D7A5E2D5B
(1734906771.754610) vcan0 510#44
(1734906771.961444) vcan0 67A#74
(1734906772.170055) vcan0 2F6#95247603D0D63365
(1734906772.379145) vcan0 112#1311BC165152FD5C
(1734906772.581838) vcan0 140#D33839612B351C7D
(1734906772.785305) vcan0 5E3#9C3B2F774B25865A
(1734906772.992318) vcan0 06E#D4E3F979
(1734906773.200095) vcan0 321#6512902231C87347
(1734906773.452085) vcan0 4BF#839FBE1A39B3233C
(1734906773.698233) vcan0 1BA#E537CB70B1CCFF
(1734906773.902584) vcan0 6E2#81A33350F457E268
(1734906774.102883) vcan0 145#45AADF45
(1734906774.304761) vcan0 4A1#B06F8F008472AF60
(1734906774.514333) vcan0 2C7#D097353B36E3660B
(1734906774.719872) vcan0 0F1#2097C952
(1734906774.966937) vcan0 112#430CC91BD1
(1734906775.167575) vcan0 42F#0A198B55E92D
(1734906775.374674) vcan0 0BD#9AFAEE2A9F8F5230
(1734906775.583566) vcan0 569#93E73419AE6E7F1D
(1734906775.787227) vcan0 2B0#33A9F220524F1E10
(1734906775.993429) vcan0 4F1#D6C1CD70
(1734906776.201958) vcan0 431#EE025076226D
(1734906776.410743) vcan0 54B#35B1A3685D468A4D
(1734906776.611938) vcan0 394#2EACF166C38F1463
(1734906776.817373) vcan0 13F#ADBD0323FCC9F337
(1734906777.018754) vcan0 627#9C59466890C36A
(1734906777.228091) vcan0 663#3E32EA5A14A9272B
(1734906777.455313) vcan0 308#66
(1734906777.659743) vcan0 455#B167A65186B89F36
(1734906777.834611) vcan0 3E3#
